
**** 04/13/21 16:59:43 ********* PSpice 9.2 (Mar 2000) ******** ID# 1 ********

 * \\vmware-host\Shared Folders\\LR_04 DO\Ampf_OE.sch


 ****     CIRCUIT DESCRIPTION


******************************************************************************




* Schematics Version 9.2
* Tue Apr 13 16:59:39 2021



** Analysis setup **
.OP 
.LIB "C:\KP_2021\bipolar.lib"
.LIB "C:\KP_2021\RUS_Q.LIB"


* From [PSPICE NETLIST] section of C:\Program Files\Orcad\PSpice\PSpice.ini:
.lib "nom.lib"

.INC "Ampf_OE.net"



**** INCLUDING Ampf_OE.net ****
* Schematics Netlist *



Q_Q         $N_0002 $N_0001 $N_0003 KT814V 
V_VG         1 0 DC 0V AC 0V 
R_RG         1 $N_0004  200  
R_R2         0 $N_0001  6.2k  
R_RE         0 $N_0003  100  
R_RK         $N_0002 $N_0005  400  
R_R1         $N_0001 $N_0005  30000  
C_CP1         $N_0004 $N_0001  5u  
C_CE         0 $N_0003  50u  
V_VPit         0 $N_0005 15V
R_RH         0 2  1200  
C_CP2         2 $N_0002  5u  
C_C4         0 2  1n  

**** RESUMING Ampf_OE.cir ****
.PROBE V(*) I(*) W(*) D(*) NOISE(*) 


.END

**** 04/13/21 16:59:43 ********* PSpice 9.2 (Mar 2000) ******** ID# 1 ********

 * \\vmware-host\Shared Folders\\LR_04 DO\Ampf_OE.sch


 ****     BJT MODEL PARAMETERS


******************************************************************************




               KT814V          
               PNP             
          IS   11.450000E-15 
          BF  102.8          
          NF    1            
         VAF  100            
         IKF     .2157       
         ISE   97.570000E-15 
          NE    1.421        
          BR    1.928        
          NR    1            
         IKR     .5927       
         ISC  637.600000E-15 
          NC    1.41         
          NK     .4096       
          RB    4            
          RC     .2979       
         CJE   71.140000E-12 
         MJE     .3333       
         CJC   88.730000E-12 
         MJC     .3333       
          TF   26.360000E-09 
         XTF    5            
         VTF   10            
         ITF    3            
          TR    2.046000E-06 
         XTB    1.5          
          CN    2.2          
           D     .52         


**** 04/13/21 16:59:43 ********* PSpice 9.2 (Mar 2000) ******** ID# 1 ********

 * \\vmware-host\Shared Folders\\LR_04 DO\Ampf_OE.sch


 ****     SMALL SIGNAL BIAS SOLUTION       TEMPERATURE =   27.000 DEG C


******************************************************************************



 NODE   VOLTAGE     NODE   VOLTAGE     NODE   VOLTAGE     NODE   VOLTAGE


(    1)    0.0000  (    2)    0.0000  ($N_0001)   -1.8807                       

($N_0002)  -10.3880                   ($N_0003)   -1.1664                       

($N_0004)    0.0000                   ($N_0005)  -15.0000                   




    VOLTAGE SOURCE CURRENTS
    NAME         CURRENT

    V_VG         0.000E+00
    V_VPit      -1.197E-02

    TOTAL POWER DISSIPATION   1.80E-01  WATTS


**** 04/13/21 16:59:43 ********* PSpice 9.2 (Mar 2000) ******** ID# 1 ********

 * \\vmware-host\Shared Folders\\LR_04 DO\Ampf_OE.sch


 ****     OPERATING POINT INFORMATION      TEMPERATURE =   27.000 DEG C


******************************************************************************






**** BIPOLAR JUNCTION TRANSISTORS


NAME         Q_Q       
MODEL        KT814V    
IB          -1.34E-04 
IC          -1.15E-02 
VBE         -7.14E-01 
VBC          8.51E+00 
VCE         -9.22E+00 
BETADC       8.61E+01 
GM           4.30E-01 
RPI          2.05E+02 
RX           4.00E+00 
RO           9.41E+03 
CBE          1.14E-08 
CBC          3.84E-11 
CJS          0.00E+00 
BETAAC       8.81E+01 
CBX/CBX2     0.00E+00 
FT/FT2       5.95E+06 



          JOB CONCLUDED

          TOTAL JOB TIME            0.00
