
**** 06/10/21 12:20:51 ********* PSpice 9.2 (Mar 2000) ******** ID# 1 ********

 * C:\KP_2021\Ampf_OE.sch


 ****     CIRCUIT DESCRIPTION


******************************************************************************




* Schematics Version 9.2
* Thu Jun 10 12:20:51 2021


.PARAM         Ampl=100m R7=2k 

** Analysis setup **
.OP 
.LIB "C:\KP_2021\bipolar.lib"
.LIB "C:\KP_2021\RUS_Q.LIB"
.LIB "C:\KP_2021\Diodes.lib"


* From [PSPICE NETLIST] section of C:\Program Files\Orcad\PSpice\PSpice.ini:
.lib "nom.lib"
.lib "C:\KP_2021\bipolar.lib"
.lib "C:\KP_2021\Diodes.lib"
.lib "C:\KP_2021\RUS_Q.LIB"

.INC "Ampf_OE.net"



**** INCLUDING Ampf_OE.net ****
* Schematics Netlist *



C_C23         0 2  0.9n  
C_C3         0 $N_0001  15u  
C_C2         $N_0002 2  0.39u  
C_C1         $N_0003 $N_0004  0.39u  
R_R6         1 $N_0003  200  
R_R3         $N_0002 $N_0005  680  
R_R4         0 $N_0001  390  
R_R2         0 $N_0004  4300  
Q_Q         $N_0002 $N_0004 $N_0001 KT361g 
R_R1         $N_0004 $N_0005  11k  
V_V2         0 $N_0005 20V
R_R7         0 2  {R7}  
V_V1         1 0  AC 1
+SIN 0 {Ampl} 5k 0 0 0

**** RESUMING Ampf_OE.cir ****
.PROBE V(*) I(*) W(*) D(*) NOISE(*) 


.END

**** 06/10/21 12:20:51 ********* PSpice 9.2 (Mar 2000) ******** ID# 1 ********

 * C:\KP_2021\Ampf_OE.sch


 ****     BJT MODEL PARAMETERS


******************************************************************************




               KT361g          
               PNP             
          IS   31.080000E-15 
          BF  203.3          
          NF    1            
         VAF   75            
         IKF     .2072       
         ISE  325.300000E-15 
          NE    1.534        
          BR    1            
          NR    1            
         IKR    3.163        
         ISC   34.360000E-15 
          NC    1.022        
          NK     .5155       
          RB   70            
          RC    3.748        
         CJE   18.500000E-12 
         CJC   10.930000E-12 
          TF   91.320000E-12 
         XTF    1.762        
         VTF   40            
         ITF     .1303       
          TR  275.600000E-09 
         XTB    1.5          
          CN    2.2          
           D     .52         


**** 06/10/21 12:20:51 ********* PSpice 9.2 (Mar 2000) ******** ID# 1 ********

 * C:\KP_2021\Ampf_OE.sch


 ****     SMALL SIGNAL BIAS SOLUTION       TEMPERATURE =   27.000 DEG C


******************************************************************************



 NODE   VOLTAGE     NODE   VOLTAGE     NODE   VOLTAGE     NODE   VOLTAGE


(    1)    0.0000  (    2)    0.0000  ($N_0001)   -4.7137                       

($N_0002)  -11.8280                   ($N_0003)    0.0000                       

($N_0004)   -5.4078                   ($N_0005)  -20.0000                   




    VOLTAGE SOURCE CURRENTS
    NAME         CURRENT

    V_V2        -1.334E-02
    V_V1         0.000E+00

    TOTAL POWER DISSIPATION   2.67E-01  WATTS


**** 06/10/21 12:20:51 ********* PSpice 9.2 (Mar 2000) ******** ID# 1 ********

 * C:\KP_2021\Ampf_OE.sch


 ****     OPERATING POINT INFORMATION      TEMPERATURE =   27.000 DEG C


******************************************************************************






**** BIPOLAR JUNCTION TRANSISTORS


NAME         Q_Q       
MODEL        KT361g    
IB          -6.89E-05 
IC          -1.20E-02 
VBE         -6.94E-01 
VBC          6.42E+00 
VCE         -7.11E+00 
BETADC       1.74E+02 
GM           4.41E-01 
RPI          3.98E+02 
RX           7.00E+01 
RO           6.77E+03 
CBE          7.13E-11 
CBC          5.20E-12 
CJS          0.00E+00 
BETAAC       1.76E+02 
CBX/CBX2     0.00E+00 
FT/FT2       9.19E+08 



          JOB CONCLUDED

          TOTAL JOB TIME             .03
