
**** 05/08/21 14:32:40 ********* PSpice 9.2 (Mar 2000) ******** ID# 1 ********

 * C:\KP_2021\RT.sch


 ****     CIRCUIT DESCRIPTION


******************************************************************************




* Schematics Version 9.2
* Sat May 08 14:32:37 2021



** Analysis setup **
.OP 
.LIB "C:\KP_2021\bipolar.lib"
.LIB "C:\KP_2021\Diodes.lib"
.LIB "C:\KP_2021\RUS_Q.LIB"


* From [PSPICE NETLIST] section of C:\Program Files\Orcad\PSpice\PSpice.ini:
.lib "nom.lib"

.INC "RT.net"



**** INCLUDING RT.net ****
* Schematics Netlist *



Q_Q         $N_0002 $N_0001 $N_0003 KT814V 
R_R3         $N_0002 $N_0004  560  
V_V1         0 $N_0004 24
R_R4         0 $N_0003  190  
R_R2         0 $N_0001  220  
R_R1         $N_0001 $N_0004  1200  

**** RESUMING RT.cir ****
.PROBE V(*) I(*) W(*) D(*) NOISE(*) 


.END

**** 05/08/21 14:32:40 ********* PSpice 9.2 (Mar 2000) ******** ID# 1 ********

 * C:\KP_2021\RT.sch


 ****     BJT MODEL PARAMETERS


******************************************************************************




               KT814V          
               PNP             
          IS   11.450000E-15 
          BF  102.8          
          NF    1            
         VAF  100            
         IKF     .2157       
         ISE   97.570000E-15 
          NE    1.421        
          BR    1.928        
          NR    1            
         IKR     .5927       
         ISC  637.600000E-15 
          NC    1.41         
          NK     .4096       
          RB    4            
          RC     .2979       
         CJE   71.140000E-12 
         MJE     .3333       
         CJC   88.730000E-12 
         MJC     .3333       
          TF   26.360000E-09 
         XTF    5            
         VTF   10            
         ITF    3            
          TR    2.046000E-06 
         XTB    1.5          
          CN    2.2          
           D     .52         


**** 05/08/21 14:32:40 ********* PSpice 9.2 (Mar 2000) ******** ID# 1 ********

 * C:\KP_2021\RT.sch


 ****     SMALL SIGNAL BIAS SOLUTION       TEMPERATURE =   27.000 DEG C


******************************************************************************



 NODE   VOLTAGE     NODE   VOLTAGE     NODE   VOLTAGE     NODE   VOLTAGE


($N_0001)   -3.6861                   ($N_0002)  -15.3590                       

($N_0003)   -2.9646                   ($N_0004)  -24.0000                   




    VOLTAGE SOURCE CURRENTS
    NAME         CURRENT

    V_V1        -3.236E-02

    TOTAL POWER DISSIPATION   7.77E-01  WATTS


**** 05/08/21 14:32:40 ********* PSpice 9.2 (Mar 2000) ******** ID# 1 ********

 * C:\KP_2021\RT.sch


 ****     OPERATING POINT INFORMATION      TEMPERATURE =   27.000 DEG C


******************************************************************************






**** BIPOLAR JUNCTION TRANSISTORS


NAME         Q_Q       
MODEL        KT814V    
IB          -1.73E-04 
IC          -1.54E-02 
VBE         -7.22E-01 
VBC          1.17E+01 
VCE         -1.24E+01 
BETADC       8.90E+01 
GM           5.69E-01 
RPI          1.58E+02 
RX           4.00E+00 
RO           7.24E+03 
CBE          1.51E-08 
CBC          3.48E-11 
CJS          0.00E+00 
BETAAC       8.98E+01 
CBX/CBX2     0.00E+00 
FT/FT2       5.97E+06 



          JOB CONCLUDED

          TOTAL JOB TIME             .02
