
**** 06/13/21 21:06:45 ********* PSpice 9.2 (Mar 2000) ******** ID# 1 ********

 * C:\KP_2021\Schematic1.sch


 ****     CIRCUIT DESCRIPTION


******************************************************************************




* Schematics Version 9.2
* Sun Jun 13 21:06:45 2021


.PARAM         R7=5k Ampl=100m 

** Analysis setup **
.ac DEC 101 10 10Meg
.STEP DEC PARAM R7 1 10k 10 
.OP 


* From [PSPICE NETLIST] section of C:\Program Files\Orcad\PSpice\PSpice.ini:
.lib "nom.lib"
.lib "C:\KP_2021\bipolar.lib"
.lib "C:\KP_2021\Diodes.lib"
.lib "C:\KP_2021\RUS_Q.LIB"

.INC "Schematic1.net"



**** INCLUDING Schematic1.net ****
* Schematics Netlist *



C_C4         0 2  0.7n  
R_R7         0 2  {R7}  
V_V2         0 $N_0001 40
R_R6         1 $N_0002  200  
R_R1         4 $N_0001  3000  
R_R2         0 4  1000  
R_R4         $N_0004 $N_0003  91  
C_C1         $N_0002 4  1.5u  
C_C2         3 2  0.68u  
V_V1         1 0  AC 1
+SIN 0 {Ampl} 5k 0 0 0
C_C3         0 $N_0004  15u  
R_R5         0 $N_0004  390  
R_R3         3 $N_0001  430  
Q_Q1         3 4 $N_0003 KT814V 

**** RESUMING Schematic1.cir ****
.PROBE V(*) I(*) W(*) D(*) NOISE(*) 


.END

**** 06/13/21 21:06:45 ********* PSpice 9.2 (Mar 2000) ******** ID# 1 ********

 * C:\KP_2021\Schematic1.sch


 ****     BJT MODEL PARAMETERS


******************************************************************************




               KT814V          
               PNP             
          IS   11.450000E-15 
          BF  102.8          
          NF    1            
         VAF  100            
         IKF     .2157       
         ISE   97.570000E-15 
          NE    1.421        
          BR    1.928        
          NR    1            
         IKR     .5927       
         ISC  637.600000E-15 
          NC    1.41         
          NK     .4096       
          RB    4            
          RC     .2979       
         CJE   71.140000E-12 
         MJE     .3333       
         CJC   88.730000E-12 
         MJC     .3333       
          TF   26.360000E-09 
         XTF    5            
         VTF   10            
         ITF    3            
          TR    2.046000E-06 
         XTB    1.5          
          CN    2.2          
           D     .52         


**** 06/13/21 21:06:45 ********* PSpice 9.2 (Mar 2000) ******** ID# 1 ********

 * C:\KP_2021\Schematic1.sch


 ****     SMALL SIGNAL BIAS SOLUTION       TEMPERATURE =   27.000 DEG C

 ****     CURRENT STEP                     PARAM R7 =    1     


******************************************************************************



 NODE   VOLTAGE     NODE   VOLTAGE     NODE   VOLTAGE     NODE   VOLTAGE


(    1)    0.0000  (    2)    0.0000  (    3)  -31.9200  (    4)   -9.8552      

($N_0001)  -40.0000                   ($N_0002)    0.0000                       

($N_0003)   -9.1307                   ($N_0004)   -7.4033                   




    VOLTAGE SOURCE CURRENTS
    NAME         CURRENT

    V_V2        -2.884E-02
    V_V1         0.000E+00

    TOTAL POWER DISSIPATION   1.15E+00  WATTS


**** 06/13/21 21:06:45 ********* PSpice 9.2 (Mar 2000) ******** ID# 1 ********

 * C:\KP_2021\Schematic1.sch


 ****     OPERATING POINT INFORMATION      TEMPERATURE =   27.000 DEG C

 ****     CURRENT STEP                     PARAM R7 =    1     


******************************************************************************






**** BIPOLAR JUNCTION TRANSISTORS


NAME         Q_Q1      
MODEL        KT814V    
IB          -1.93E-04 
IC          -1.88E-02 
VBE         -7.25E-01 
VBC          2.21E+01 
VCE         -2.28E+01 
BETADC       9.73E+01 
GM           6.90E-01 
RPI          1.42E+02 
RX           4.00E+00 
RO           6.50E+03 
CBE          1.83E-08 
CBC          2.84E-11 
CJS          0.00E+00 
BETAAC       9.76E+01 
CBX/CBX2     0.00E+00 
FT/FT2       5.99E+06 


**** 06/13/21 21:06:45 ********* PSpice 9.2 (Mar 2000) ******** ID# 1 ********

 * C:\KP_2021\Schematic1.sch


 ****     SMALL SIGNAL BIAS SOLUTION       TEMPERATURE =   27.000 DEG C

 ****     CURRENT STEP                     PARAM R7 =    1.2589


******************************************************************************



 NODE   VOLTAGE     NODE   VOLTAGE     NODE   VOLTAGE     NODE   VOLTAGE


(    1)    0.0000  (    2)    0.0000  (    3)  -31.9200  (    4)   -9.8552      

($N_0001)  -40.0000                   ($N_0002)    0.0000                       

($N_0003)   -9.1307                   ($N_0004)   -7.4033                   




    VOLTAGE SOURCE CURRENTS
    NAME         CURRENT

    V_V2        -2.884E-02
    V_V1         0.000E+00

    TOTAL POWER DISSIPATION   1.15E+00  WATTS


**** 06/13/21 21:06:45 ********* PSpice 9.2 (Mar 2000) ******** ID# 1 ********

 * C:\KP_2021\Schematic1.sch


 ****     OPERATING POINT INFORMATION      TEMPERATURE =   27.000 DEG C

 ****     CURRENT STEP                     PARAM R7 =    1.2589


******************************************************************************






**** BIPOLAR JUNCTION TRANSISTORS


NAME         Q_Q1      
MODEL        KT814V    
IB          -1.93E-04 
IC          -1.88E-02 
VBE         -7.25E-01 
VBC          2.21E+01 
VCE         -2.28E+01 
BETADC       9.73E+01 
GM           6.90E-01 
RPI          1.42E+02 
RX           4.00E+00 
RO           6.50E+03 
CBE          1.83E-08 
CBC          2.84E-11 
CJS          0.00E+00 
BETAAC       9.76E+01 
CBX/CBX2     0.00E+00 
FT/FT2       5.99E+06 


**** 06/13/21 21:06:45 ********* PSpice 9.2 (Mar 2000) ******** ID# 1 ********

 * C:\KP_2021\Schematic1.sch


 ****     SMALL SIGNAL BIAS SOLUTION       TEMPERATURE =   27.000 DEG C

 ****     CURRENT STEP                     PARAM R7 =    1.5849


******************************************************************************



 NODE   VOLTAGE     NODE   VOLTAGE     NODE   VOLTAGE     NODE   VOLTAGE


(    1)    0.0000  (    2)    0.0000  (    3)  -31.9200  (    4)   -9.8552      

($N_0001)  -40.0000                   ($N_0002)    0.0000                       

($N_0003)   -9.1307                   ($N_0004)   -7.4033                   




    VOLTAGE SOURCE CURRENTS
    NAME         CURRENT

    V_V2        -2.884E-02
    V_V1         0.000E+00

    TOTAL POWER DISSIPATION   1.15E+00  WATTS


**** 06/13/21 21:06:45 ********* PSpice 9.2 (Mar 2000) ******** ID# 1 ********

 * C:\KP_2021\Schematic1.sch


 ****     OPERATING POINT INFORMATION      TEMPERATURE =   27.000 DEG C

 ****     CURRENT STEP                     PARAM R7 =    1.5849


******************************************************************************






**** BIPOLAR JUNCTION TRANSISTORS


NAME         Q_Q1      
MODEL        KT814V    
IB          -1.93E-04 
IC          -1.88E-02 
VBE         -7.25E-01 
VBC          2.21E+01 
VCE         -2.28E+01 
BETADC       9.73E+01 
GM           6.90E-01 
RPI          1.42E+02 
RX           4.00E+00 
RO           6.50E+03 
CBE          1.83E-08 
CBC          2.84E-11 
CJS          0.00E+00 
BETAAC       9.76E+01 
CBX/CBX2     0.00E+00 
FT/FT2       5.99E+06 


**** 06/13/21 21:06:45 ********* PSpice 9.2 (Mar 2000) ******** ID# 1 ********

 * C:\KP_2021\Schematic1.sch


 ****     SMALL SIGNAL BIAS SOLUTION       TEMPERATURE =   27.000 DEG C

 ****     CURRENT STEP                     PARAM R7 =    1.9953


******************************************************************************



 NODE   VOLTAGE     NODE   VOLTAGE     NODE   VOLTAGE     NODE   VOLTAGE


(    1)    0.0000  (    2)    0.0000  (    3)  -31.9200  (    4)   -9.8552      

($N_0001)  -40.0000                   ($N_0002)    0.0000                       

($N_0003)   -9.1307                   ($N_0004)   -7.4033                   




    VOLTAGE SOURCE CURRENTS
    NAME         CURRENT

    V_V2        -2.884E-02
    V_V1         0.000E+00

    TOTAL POWER DISSIPATION   1.15E+00  WATTS


**** 06/13/21 21:06:45 ********* PSpice 9.2 (Mar 2000) ******** ID# 1 ********

 * C:\KP_2021\Schematic1.sch


 ****     OPERATING POINT INFORMATION      TEMPERATURE =   27.000 DEG C

 ****     CURRENT STEP                     PARAM R7 =    1.9953


******************************************************************************






**** BIPOLAR JUNCTION TRANSISTORS


NAME         Q_Q1      
MODEL        KT814V    
IB          -1.93E-04 
IC          -1.88E-02 
VBE         -7.25E-01 
VBC          2.21E+01 
VCE         -2.28E+01 
BETADC       9.73E+01 
GM           6.90E-01 
RPI          1.42E+02 
RX           4.00E+00 
RO           6.50E+03 
CBE          1.83E-08 
CBC          2.84E-11 
CJS          0.00E+00 
BETAAC       9.76E+01 
CBX/CBX2     0.00E+00 
FT/FT2       5.99E+06 


**** 06/13/21 21:06:45 ********* PSpice 9.2 (Mar 2000) ******** ID# 1 ********

 * C:\KP_2021\Schematic1.sch


 ****     SMALL SIGNAL BIAS SOLUTION       TEMPERATURE =   27.000 DEG C

 ****     CURRENT STEP                     PARAM R7 =    2.5119


******************************************************************************



 NODE   VOLTAGE     NODE   VOLTAGE     NODE   VOLTAGE     NODE   VOLTAGE


(    1)    0.0000  (    2)    0.0000  (    3)  -31.9200  (    4)   -9.8552      

($N_0001)  -40.0000                   ($N_0002)    0.0000                       

($N_0003)   -9.1307                   ($N_0004)   -7.4033                   




    VOLTAGE SOURCE CURRENTS
    NAME         CURRENT

    V_V2        -2.884E-02
    V_V1         0.000E+00

    TOTAL POWER DISSIPATION   1.15E+00  WATTS


**** 06/13/21 21:06:45 ********* PSpice 9.2 (Mar 2000) ******** ID# 1 ********

 * C:\KP_2021\Schematic1.sch


 ****     OPERATING POINT INFORMATION      TEMPERATURE =   27.000 DEG C

 ****     CURRENT STEP                     PARAM R7 =    2.5119


******************************************************************************






**** BIPOLAR JUNCTION TRANSISTORS


NAME         Q_Q1      
MODEL        KT814V    
IB          -1.93E-04 
IC          -1.88E-02 
VBE         -7.25E-01 
VBC          2.21E+01 
VCE         -2.28E+01 
BETADC       9.73E+01 
GM           6.90E-01 
RPI          1.42E+02 
RX           4.00E+00 
RO           6.50E+03 
CBE          1.83E-08 
CBC          2.84E-11 
CJS          0.00E+00 
BETAAC       9.76E+01 
CBX/CBX2     0.00E+00 
FT/FT2       5.99E+06 


**** 06/13/21 21:06:45 ********* PSpice 9.2 (Mar 2000) ******** ID# 1 ********

 * C:\KP_2021\Schematic1.sch


 ****     SMALL SIGNAL BIAS SOLUTION       TEMPERATURE =   27.000 DEG C

 ****     CURRENT STEP                     PARAM R7 =    3.1623


******************************************************************************



 NODE   VOLTAGE     NODE   VOLTAGE     NODE   VOLTAGE     NODE   VOLTAGE


(    1)    0.0000  (    2)    0.0000  (    3)  -31.9200  (    4)   -9.8552      

($N_0001)  -40.0000                   ($N_0002)    0.0000                       

($N_0003)   -9.1307                   ($N_0004)   -7.4033                   




    VOLTAGE SOURCE CURRENTS
    NAME         CURRENT

    V_V2        -2.884E-02
    V_V1         0.000E+00

    TOTAL POWER DISSIPATION   1.15E+00  WATTS


**** 06/13/21 21:06:45 ********* PSpice 9.2 (Mar 2000) ******** ID# 1 ********

 * C:\KP_2021\Schematic1.sch


 ****     OPERATING POINT INFORMATION      TEMPERATURE =   27.000 DEG C

 ****     CURRENT STEP                     PARAM R7 =    3.1623


******************************************************************************






**** BIPOLAR JUNCTION TRANSISTORS


NAME         Q_Q1      
MODEL        KT814V    
IB          -1.93E-04 
IC          -1.88E-02 
VBE         -7.25E-01 
VBC          2.21E+01 
VCE         -2.28E+01 
BETADC       9.73E+01 
GM           6.90E-01 
RPI          1.42E+02 
RX           4.00E+00 
RO           6.50E+03 
CBE          1.83E-08 
CBC          2.84E-11 
CJS          0.00E+00 
BETAAC       9.76E+01 
CBX/CBX2     0.00E+00 
FT/FT2       5.99E+06 


**** 06/13/21 21:06:45 ********* PSpice 9.2 (Mar 2000) ******** ID# 1 ********

 * C:\KP_2021\Schematic1.sch


 ****     SMALL SIGNAL BIAS SOLUTION       TEMPERATURE =   27.000 DEG C

 ****     CURRENT STEP                     PARAM R7 =    3.9811


******************************************************************************



 NODE   VOLTAGE     NODE   VOLTAGE     NODE   VOLTAGE     NODE   VOLTAGE


(    1)    0.0000  (    2)    0.0000  (    3)  -31.9200  (    4)   -9.8552      

($N_0001)  -40.0000                   ($N_0002)    0.0000                       

($N_0003)   -9.1307                   ($N_0004)   -7.4033                   




    VOLTAGE SOURCE CURRENTS
    NAME         CURRENT

    V_V2        -2.884E-02
    V_V1         0.000E+00

    TOTAL POWER DISSIPATION   1.15E+00  WATTS


**** 06/13/21 21:06:45 ********* PSpice 9.2 (Mar 2000) ******** ID# 1 ********

 * C:\KP_2021\Schematic1.sch


 ****     OPERATING POINT INFORMATION      TEMPERATURE =   27.000 DEG C

 ****     CURRENT STEP                     PARAM R7 =    3.9811


******************************************************************************






**** BIPOLAR JUNCTION TRANSISTORS


NAME         Q_Q1      
MODEL        KT814V    
IB          -1.93E-04 
IC          -1.88E-02 
VBE         -7.25E-01 
VBC          2.21E+01 
VCE         -2.28E+01 
BETADC       9.73E+01 
GM           6.90E-01 
RPI          1.42E+02 
RX           4.00E+00 
RO           6.50E+03 
CBE          1.83E-08 
CBC          2.84E-11 
CJS          0.00E+00 
BETAAC       9.76E+01 
CBX/CBX2     0.00E+00 
FT/FT2       5.99E+06 


**** 06/13/21 21:06:45 ********* PSpice 9.2 (Mar 2000) ******** ID# 1 ********

 * C:\KP_2021\Schematic1.sch


 ****     SMALL SIGNAL BIAS SOLUTION       TEMPERATURE =   27.000 DEG C

 ****     CURRENT STEP                     PARAM R7 =    5.0119


******************************************************************************



 NODE   VOLTAGE     NODE   VOLTAGE     NODE   VOLTAGE     NODE   VOLTAGE


(    1)    0.0000  (    2)    0.0000  (    3)  -31.9200  (    4)   -9.8552      

($N_0001)  -40.0000                   ($N_0002)    0.0000                       

($N_0003)   -9.1307                   ($N_0004)   -7.4033                   




    VOLTAGE SOURCE CURRENTS
    NAME         CURRENT

    V_V2        -2.884E-02
    V_V1         0.000E+00

    TOTAL POWER DISSIPATION   1.15E+00  WATTS


**** 06/13/21 21:06:45 ********* PSpice 9.2 (Mar 2000) ******** ID# 1 ********

 * C:\KP_2021\Schematic1.sch


 ****     OPERATING POINT INFORMATION      TEMPERATURE =   27.000 DEG C

 ****     CURRENT STEP                     PARAM R7 =    5.0119


******************************************************************************






**** BIPOLAR JUNCTION TRANSISTORS


NAME         Q_Q1      
MODEL        KT814V    
IB          -1.93E-04 
IC          -1.88E-02 
VBE         -7.25E-01 
VBC          2.21E+01 
VCE         -2.28E+01 
BETADC       9.73E+01 
GM           6.90E-01 
RPI          1.42E+02 
RX           4.00E+00 
RO           6.50E+03 
CBE          1.83E-08 
CBC          2.84E-11 
CJS          0.00E+00 
BETAAC       9.76E+01 
CBX/CBX2     0.00E+00 
FT/FT2       5.99E+06 


**** 06/13/21 21:06:45 ********* PSpice 9.2 (Mar 2000) ******** ID# 1 ********

 * C:\KP_2021\Schematic1.sch


 ****     SMALL SIGNAL BIAS SOLUTION       TEMPERATURE =   27.000 DEG C

 ****     CURRENT STEP                     PARAM R7 =    6.3096


******************************************************************************



 NODE   VOLTAGE     NODE   VOLTAGE     NODE   VOLTAGE     NODE   VOLTAGE


(    1)    0.0000  (    2)    0.0000  (    3)  -31.9200  (    4)   -9.8552      

($N_0001)  -40.0000                   ($N_0002)    0.0000                       

($N_0003)   -9.1307                   ($N_0004)   -7.4033                   




    VOLTAGE SOURCE CURRENTS
    NAME         CURRENT

    V_V2        -2.884E-02
    V_V1         0.000E+00

    TOTAL POWER DISSIPATION   1.15E+00  WATTS


**** 06/13/21 21:06:45 ********* PSpice 9.2 (Mar 2000) ******** ID# 1 ********

 * C:\KP_2021\Schematic1.sch


 ****     OPERATING POINT INFORMATION      TEMPERATURE =   27.000 DEG C

 ****     CURRENT STEP                     PARAM R7 =    6.3096


******************************************************************************






**** BIPOLAR JUNCTION TRANSISTORS


NAME         Q_Q1      
MODEL        KT814V    
IB          -1.93E-04 
IC          -1.88E-02 
VBE         -7.25E-01 
VBC          2.21E+01 
VCE         -2.28E+01 
BETADC       9.73E+01 
GM           6.90E-01 
RPI          1.42E+02 
RX           4.00E+00 
RO           6.50E+03 
CBE          1.83E-08 
CBC          2.84E-11 
CJS          0.00E+00 
BETAAC       9.76E+01 
CBX/CBX2     0.00E+00 
FT/FT2       5.99E+06 


**** 06/13/21 21:06:45 ********* PSpice 9.2 (Mar 2000) ******** ID# 1 ********

 * C:\KP_2021\Schematic1.sch


 ****     SMALL SIGNAL BIAS SOLUTION       TEMPERATURE =   27.000 DEG C

 ****     CURRENT STEP                     PARAM R7 =    7.9433


******************************************************************************



 NODE   VOLTAGE     NODE   VOLTAGE     NODE   VOLTAGE     NODE   VOLTAGE


(    1)    0.0000  (    2)    0.0000  (    3)  -31.9200  (    4)   -9.8552      

($N_0001)  -40.0000                   ($N_0002)    0.0000                       

($N_0003)   -9.1307                   ($N_0004)   -7.4033                   




    VOLTAGE SOURCE CURRENTS
    NAME         CURRENT

    V_V2        -2.884E-02
    V_V1         0.000E+00

    TOTAL POWER DISSIPATION   1.15E+00  WATTS


**** 06/13/21 21:06:45 ********* PSpice 9.2 (Mar 2000) ******** ID# 1 ********

 * C:\KP_2021\Schematic1.sch


 ****     OPERATING POINT INFORMATION      TEMPERATURE =   27.000 DEG C

 ****     CURRENT STEP                     PARAM R7 =    7.9433


******************************************************************************






**** BIPOLAR JUNCTION TRANSISTORS


NAME         Q_Q1      
MODEL        KT814V    
IB          -1.93E-04 
IC          -1.88E-02 
VBE         -7.25E-01 
VBC          2.21E+01 
VCE         -2.28E+01 
BETADC       9.73E+01 
GM           6.90E-01 
RPI          1.42E+02 
RX           4.00E+00 
RO           6.50E+03 
CBE          1.83E-08 
CBC          2.84E-11 
CJS          0.00E+00 
BETAAC       9.76E+01 
CBX/CBX2     0.00E+00 
FT/FT2       5.99E+06 


**** 06/13/21 21:06:45 ********* PSpice 9.2 (Mar 2000) ******** ID# 1 ********

 * C:\KP_2021\Schematic1.sch


 ****     SMALL SIGNAL BIAS SOLUTION       TEMPERATURE =   27.000 DEG C

 ****     CURRENT STEP                     PARAM R7 =   10    


******************************************************************************



 NODE   VOLTAGE     NODE   VOLTAGE     NODE   VOLTAGE     NODE   VOLTAGE


(    1)    0.0000  (    2)    0.0000  (    3)  -31.9200  (    4)   -9.8552      

($N_0001)  -40.0000                   ($N_0002)    0.0000                       

($N_0003)   -9.1307                   ($N_0004)   -7.4033                   




    VOLTAGE SOURCE CURRENTS
    NAME         CURRENT

    V_V2        -2.884E-02
    V_V1         0.000E+00

    TOTAL POWER DISSIPATION   1.15E+00  WATTS


